2个台无线温度终端
[2020:08:21:15:02:22][接收]02 03 00 01 00 78 14 1B 
[2020:08:21:15:02:22][接收]02 03 F0 01 00 01 02 01 00 00 00 00 00 00 00 00 00 00 00 00 00 01 03 01 00 01 00 00 00 00 00 00 00 00 00 00 00 00 00 00 00 00 00 00 00 00 FE 00 FD 00 FE 00 FB 00 FB 00 FA 00 00 00 00 00 00 00 00 00 00 00 00 00 00 00 00 00 00 00 00 00 00 00 00 00 00 00 00 00 00 01 00 01 00 01 00 01 01 01 00 01 01 00 00 00 00 00 00 00 00 00 00 00 00 00 00 00 00 00 00 00 00 00 00 00 00 00 00 00 00 00 
[2020:08:21:15:02:22][接收]00 01 03 01 04 01 03 00 FE 00 FF 00 FD 01 0D 01 0B 01 0E 01 03 01 02 00 00 01 0A 01 08 01 08 01 07 01 03 01 00 00 00 00 00 00 00 00 00 00 00 00 00 00 00 00 00 00 00 00 00 00 00 00 00 00 00 00 00 00 00 00 00 00 00 00 00 01 04 01 04 01 04 00 FD 00 FD 00 FD 00 00 00 00 00 00 00 00 00 00 00 00 00 00 00 00 00 00 00 00 00 00 00 00 00 00 00 00 00 00 8A 13 
[2020:08:21:15:02:24][接收]02 03 00 79 00 09 54 26 
[2020:08:21:15:02:24][接收]02 03 12 00 00 00 00 00 00 00 00 00 00 00 00 00 00 00 00 00 00 C1 B1 
[2020:08:21:15:02:26][接收]03 03 00 01 00 78 15 CA 
[2020:08:21:15:02:26][接收]03 03 F0 00 FF 00 FD 00 FF 00 00 00 00 00 00 00 00 00 00 00 00 00 00 00 00 00 00 00 F6 00 F5 00 F5 00 00 00 00 00 00 00 00 00 00 00 00 00 00 00 00 00 00 00 00 00 00 00 00 00 F6 00 F7 00 F6 00 FF 00 FB 00 FC 00 00 00 
[2020:08:21:15:02:26][接收]00 00 00 00 00 00 00 00 00 00 00 00 00 00 00 00 00 00 00 00 00 00 00 00 00 00 00 00 00 00 00 00 00 00 00 00 00 00 00 00 00 00 00 00 00 00 00 00 00 00 00 00 00 00 00 00 F7 00 00 00 00 00 00 00 00 00 00 00 00 00 F7 00 F5 00 F6 00 F8 00 F7 00 F9 00 00 00 00 00 00 00 FA 00 F8 00 FA 00 00 00 00 00 00 00 00 00 00 00 00 00 00 00 00 00 00 00 00 00 00 00 00 00 00 00 00 00 00 00 F3 00 F4 00 F4 
[2020:08:21:15:02:26][接收]00 00 00 00 00 00 01 04 01 05 01 05 01 0A 01 0C 01 0C 00 00 00 00 00 00 01 07 01 06 01 07 01 05 01 05 01 05 01 0A 01 09 01 08 44 6B 
[2020:08:21:15:02:28][接收]03 03 00 79 00 27 D5 EB 
[2020:08:21:15:02:28][接收]03 03 4E 01 01 01 02 01 00 00 00 00 00 00 00 01 0F 01 0F 01 0E 01 0C 01 0C 01 0C 00 00 00 00 00 
[2020:08:21:15:02:28][接收]00 01 5E 01 5B 01 5A 00 00 00 00 00 00 01 59 01 59 01 57 01 4F 01 4A 01 4E 01 54 01 56 01 53 01 52 01 4E 01 4C 01 53 01 52 01 50 01 4F 01 4B 01 4B DC 22 
1台无线温湿度终端
[2020:08:21:15:14:11][接收]01 09 00 01 00 13 CD C6 
[2020:08:21:15:14:11][接收]01 09 4C 01 21 01 68 00 00 00 00 01 2F 01 4B 01 31 01 43 01 31 01 3C 01 29 01 41 00 00 00 00 01 27 01 4A 01 31 01 2D 01 26 01 41 01 24 01 43 01 26 01 3A 00 00 00 00 01 2D 01 36 01 2E 01 3A 01 29 01 32 01 25 01 4A 01 28 01 41 01 26 01 4A FF 58 
消防主机
[2020:08:21:15:22:28][接收]01 03 00 01 00 43 55 FB 
[2020:08:21:15:22:28][接收]01 03 86 00 00 00 00 00 00 00 00 00 00 00 00 00 00 00 00 00 00 00 00 00 00 00 00 00 00 00 00 00 00 00 00 00 00 00 00 00 00 00 00 00 00 00 00 00 00 00 00 00 00 00 00 00 00 00 00 00 00 00 00 00 
[2020:08:21:15:22:28][接收]00 00 00 00 00 00 00 00 00 00 00 00 00 00 00 00 00 00 00 00 00 00 00 00 00 00 00 00 00 00 00 00 00 00 00 00 00 00 00 00 00 00 00 00 00 00 00 00 00 00 00 00 00 00 00 00 00 00 00 00 00 00 00 00 00 00 00 00 00 00 00 00 00 62 7A 
蓄电池
[2020:08:21:15:30:54][接收]0B 03 03 20 00 0B 05 29 
[2020:08:21:15:30:54][接收]0B 03 16 08 00 00 00 00 00 00 00 00 00 00 00 2D B2 0A 82 00 00 27 0D 00 00 2D 0A 
